T560C 000:006.163   SEGGER J-Link V6.98 Log File
T560C 000:006.350   DLL Compiled: Mar  2 2021 15:48:59
T560C 000:006.359   Logging started @ 2025-09-09 14:03
T560C 000:006.367 - 6.372ms
T560C 000:006.389 JLINK_SetWarnOutHandler(...)
T560C 000:006.400 - 0.015ms
T560C 000:006.410 JLINK_OpenEx(...)
T560C 000:008.978   Firmware: J-Link V9 compiled Dec  8 2023 20:16:22
T560C 000:009.513   Firmware: J-Link V9 compiled Dec  8 2023 20:16:22
T560C 000:009.700   Decompressing FW timestamp took 149 us
T560C 000:018.656   Hardware: V9.70
T560C 000:018.700   S/N: 602720404
T560C 000:018.712   OEM: SEGGER
T560C 000:018.721   Feature(s): GDB, RDI, FlashBP, FlashDL, JFlash
T560C 000:020.805   TELNET listener socket opened on port 19021
T560C 000:020.999   WEBSRV Starting webserver
T560C 000:021.213   WEBSRV Webserver running on local port 19080
T560C 000:021.226 - 14.818ms returns "O.K."
T560C 000:021.247 JLINK_GetEmuCaps()
T560C 000:021.256 - 0.012ms returns 0xB9FF7BBF
T560C 000:021.348 JLINK_TIF_GetAvailable(...)
T560C 000:021.791 - 0.454ms
T560C 000:021.810 JLINK_SetErrorOutHandler(...)
T560C 000:021.816 - 0.009ms
T560C 000:021.841 JLINK_ExecCommand("ProjectFile = "C:\Users\Administrator\Desktop\Project_base\04_Software\02_homework\16_1_UART_DMA_Arch_ope\MDK-ARM\JLinkSettings.ini"", ...). 
T560C 000:029.838   Ref file found at: C:\Keil_v5\ARM\Segger\JLinkDevices.ref
T560C 000:029.924   XML referenced by ref file: C:\Program Files (x86)\SEGGER\JLink\JLinkDevices.xml
T560C 000:030.529   C:\Program Files (x86)\SEGGER\JLink\JLinkDevices.xml evaluated successfully.
T560C 000:061.500 - 39.674ms returns 0x00
T560C 000:063.907 JLINK_ExecCommand("Device = STM32F411CEUx", ...). 
T560C 000:066.182   Device "STM32F411CE" selected.
T560C 000:066.558 - 2.640ms returns 0x00
T560C 000:066.579 JLINK_GetHardwareVersion()
T560C 000:066.586 - 0.010ms returns 97000
T560C 000:066.600 JLINK_GetDLLVersion()
T560C 000:066.606 - 0.008ms returns 69800
T560C 000:066.613 JLINK_GetOEMString(...)
T560C 000:066.630 JLINK_GetFirmwareString(...)
T560C 000:066.636 - 0.009ms
T560C 000:072.593 JLINK_GetDLLVersion()
T560C 000:072.620 - 0.030ms returns 69800
T560C 000:072.628 JLINK_GetCompileDateTime()
T560C 000:072.634 - 0.008ms
T560C 000:074.493 JLINK_GetFirmwareString(...)
T560C 000:074.509 - 0.019ms
T560C 000:076.398 JLINK_GetHardwareVersion()
T560C 000:076.411 - 0.016ms returns 97000
T560C 000:078.192 JLINK_GetSN()
T560C 000:078.204 - 0.015ms returns 602720404
T560C 000:079.891 JLINK_GetOEMString(...)
T560C 000:084.643 JLINK_TIF_Select(JLINKARM_TIF_SWD)
T560C 000:086.289 - 1.661ms returns 0x00
T560C 000:086.320 JLINK_HasError()
T560C 000:086.397 JLINK_SetSpeed(5000)
T560C 000:086.720 - 0.330ms
T560C 000:086.735 JLINK_GetId()
T560C 000:090.786   Found SW-DP with ID 0x2BA01477
T560C 000:122.197   Found SW-DP with ID 0x2BA01477
T560C 000:128.793   DPIDR: 0x2BA01477
T560C 000:130.902   Scanning AP map to find all available APs
T560C 000:134.266   AP[1]: Stopped AP scan as end of AP map has been reached
T560C 000:136.187   AP[0]: AHB-AP (IDR: 0x24770011)
T560C 000:138.114   Iterating through AP map to find AHB-AP to use
T560C 000:141.695   AP[0]: Core found
T560C 000:143.453   AP[0]: AHB-AP ROM base: 0xE00FF000
T560C 000:145.880   CPUID register: 0x410FC241. Implementer code: 0x41 (ARM)
T560C 000:149.494   Found Cortex-M4 r0p1, Little endian.
T560C 000:251.676   -- Max. mem block: 0x0000D1B8
T560C 000:252.157   CPU_ReadMem(4 bytes @ 0xE000EDF0)
T560C 000:252.895   CPU_ReadMem(4 bytes @ 0xE0002000)
T560C 000:255.773   FPUnit: 6 code (BP) slots and 2 literal slots
T560C 000:255.801   CPU_ReadMem(4 bytes @ 0xE000EDFC)
T560C 000:256.397   CPU_WriteMem(4 bytes @ 0xE000EDFC)
T560C 000:257.001   CPU_ReadMem(4 bytes @ 0xE0001000)
T560C 000:257.672   CPU_WriteMem(4 bytes @ 0xE0001000)
T560C 000:258.275   CPU_ReadMem(4 bytes @ 0xE000ED88)
T560C 000:258.909   CPU_WriteMem(4 bytes @ 0xE000ED88)
T560C 000:259.537   CPU_ReadMem(4 bytes @ 0xE000ED88)
T560C 000:260.209   CPU_WriteMem(4 bytes @ 0xE000ED88)
T560C 000:262.734   CoreSight components:
T560C 000:264.410   ROMTbl[0] @ E00FF000
T560C 000:264.426   CPU_ReadMem(64 bytes @ 0xE00FF000)
T560C 000:265.461   CPU_ReadMem(32 bytes @ 0xE000EFE0)
T560C 000:268.106   ROMTbl[0][0]: E000E000, CID: B105E00D, PID: 000BB00C SCS-M7
T560C 000:268.140   CPU_ReadMem(32 bytes @ 0xE0001FE0)
T560C 000:270.654   ROMTbl[0][1]: E0001000, CID: B105E00D, PID: 003BB002 DWT
T560C 000:270.680   CPU_ReadMem(32 bytes @ 0xE0002FE0)
T560C 000:274.627   ROMTbl[0][2]: E0002000, CID: B105E00D, PID: 002BB003 FPB
T560C 000:274.657   CPU_ReadMem(32 bytes @ 0xE0000FE0)
T560C 000:277.216   ROMTbl[0][3]: E0000000, CID: B105E00D, PID: 003BB001 ITM
T560C 000:277.237   CPU_ReadMem(32 bytes @ 0xE0040FE0)
T560C 000:279.811   ROMTbl[0][4]: E0040000, CID: B105900D, PID: 000BB9A1 TPIU
T560C 000:279.830   CPU_ReadMem(32 bytes @ 0xE0041FE0)
T560C 000:282.356   ROMTbl[0][5]: E0041000, CID: B105900D, PID: 000BB925 ETM
T560C 000:283.049 - 196.324ms returns 0x2BA01477
T560C 000:283.077 JLINK_GetDLLVersion()
T560C 000:283.084 - 0.009ms returns 69800
T560C 000:283.092 JLINK_CORE_GetFound()
T560C 000:283.098 - 0.008ms returns 0xE0000FF
T560C 000:283.160 JLINK_GetDebugInfo(0x100 = JLINKARM_ROM_TABLE_ADDR_INDEX)
T560C 000:283.175   Value=0xE00FF000
T560C 000:283.183 - 0.025ms returns 0
T560C 000:285.089 JLINK_GetDebugInfo(0x100 = JLINKARM_ROM_TABLE_ADDR_INDEX)
T560C 000:285.113   Value=0xE00FF000
T560C 000:285.122 - 0.035ms returns 0
T560C 000:285.129 JLINK_GetDebugInfo(0x101 = JLINKARM_DEBUG_INFO_ETM_ADDR_INDEX)
T560C 000:285.135   Value=0xE0041000
T560C 000:285.143 - 0.016ms returns 0
T560C 000:285.150 JLINK_ReadMemEx(0xE0041FD0, 0x20 Bytes, Flags = 0x02000004)
T560C 000:285.190   CPU_ReadMem(32 bytes @ 0xE0041FD0)
T560C 000:286.156   Data:  04 00 00 00 00 00 00 00 00 00 00 00 00 00 00 00 ...
T560C 000:286.172 - 1.025ms returns 32 (0x20)
T560C 000:286.182 JLINK_GetDebugInfo(0x102 = JLINKARM_DEBUG_INFO_MTB_ADDR_INDEX)
T560C 000:286.189   Value=0x00000000
T560C 000:286.196 - 0.017ms returns 0
T560C 000:286.203 JLINK_GetDebugInfo(0x103 = JLINKARM_DEBUG_INFO_TPIU_ADDR_INDEX)
T560C 000:286.209   Value=0xE0040000
T560C 000:286.217 - 0.016ms returns 0
T560C 000:286.224 JLINK_GetDebugInfo(0x104 = JLINKARM_DEBUG_INFO_ITM_ADDR_INDEX)
T560C 000:286.230   Value=0xE0000000
T560C 000:286.237 - 0.016ms returns 0
T560C 000:286.244 JLINK_GetDebugInfo(0x105 = JLINKARM_DEBUG_INFO_DWT_ADDR_INDEX)
T560C 000:286.250   Value=0xE0001000
T560C 000:286.258 - 0.016ms returns 0
T560C 000:286.264 JLINK_GetDebugInfo(0x106 = JLINKARM_DEBUG_INFO_FPB_ADDR_INDEX)
T560C 000:286.270   Value=0xE0002000
T560C 000:286.278 - 0.016ms returns 0
T560C 000:286.284 JLINK_GetDebugInfo(0x107 = JLINKARM_DEBUG_INFO_NVIC_ADDR_INDEX)
T560C 000:286.290   Value=0xE000E000
T560C 000:286.298 - 0.016ms returns 0
T560C 000:286.304 JLINK_GetDebugInfo(0x10C = JLINKARM_DEBUG_INFO_DBG_ADDR_INDEX)
T560C 000:286.310   Value=0xE000EDF0
T560C 000:286.318 - 0.016ms returns 0
T560C 000:286.324 JLINK_GetDebugInfo(0x01 = Unknown)
T560C 000:286.330   Value=0x00000001
T560C 000:286.338 - 0.016ms returns 0
T560C 000:286.345 JLINK_ReadMemU32(0xE000ED00, 0x1 Items)
T560C 000:286.356   CPU_ReadMem(4 bytes @ 0xE000ED00)
T560C 000:287.072   Data:  41 C2 0F 41
T560C 000:287.089   Debug reg: CPUID
T560C 000:287.097 - 0.755ms returns 1 (0x1)
T560C 000:287.106 JLINK_GetDebugInfo(0x10F = JLINKARM_DEBUG_INFO_HAS_CORTEX_M_SECURITY_EXT_INDEX)
T560C 000:287.113   Value=0x00000000
T560C 000:287.121 - 0.017ms returns 0
T560C 000:287.129 JLINK_HasError()
T560C 000:287.136 JLINK_SetResetType(JLINKARM_CM3_RESET_TYPE_NORMAL)
T560C 000:287.142 - 0.008ms returns JLINKARM_CM3_RESET_TYPE_NORMAL
T560C 000:287.149 JLINK_Reset()
T560C 000:287.173   CPU is running
T560C 000:287.184   CPU_WriteMem(4 bytes @ 0xE000EDF0)
T560C 000:287.968   CPU is running
T560C 000:287.987   CPU_WriteMem(4 bytes @ 0xE000EDFC)
T560C 000:290.562   Reset: Halt core after reset via DEMCR.VC_CORERESET.
T560C 000:293.371   Reset: Reset device via AIRCR.SYSRESETREQ.
T560C 000:293.389   CPU is running
T560C 000:293.409   CPU_WriteMem(4 bytes @ 0xE000ED0C)
T560C 000:347.623   CPU_ReadMem(4 bytes @ 0xE000EDF0)
T560C 000:348.282   CPU_ReadMem(4 bytes @ 0xE000EDF0)
T560C 000:348.987   CPU is running
T560C 000:349.005   CPU_WriteMem(4 bytes @ 0xE000EDF0)
T560C 000:349.752   CPU is running
T560C 000:349.771   CPU_WriteMem(4 bytes @ 0xE000EDFC)
T560C 000:356.065   CPU_ReadMem(4 bytes @ 0xE000EDF0)
T560C 000:360.609   CPU_WriteMem(4 bytes @ 0xE0002000)
T560C 000:361.319   CPU_ReadMem(4 bytes @ 0xE000EDFC)
T560C 000:361.980   CPU_ReadMem(4 bytes @ 0xE0001000)
T560C 000:362.607 - 75.468ms
T560C 000:362.640 JLINK_Halt()
T560C 000:362.651 - 0.014ms returns 0x00
T560C 000:362.662 JLINK_ReadMemU32(0xE000EDF0, 0x1 Items)
T560C 000:362.680   CPU_ReadMem(4 bytes @ 0xE000EDF0)
T560C 000:363.364   Data:  03 00 03 00
T560C 000:363.380   Debug reg: DHCSR
T560C 000:363.388 - 0.728ms returns 1 (0x1)
T560C 000:363.406 JLINK_WriteU32_64(0xE000EDF0, 0xA05F0003)
T560C 000:363.413   Debug reg: DHCSR
T560C 000:363.694   CPU_WriteMem(4 bytes @ 0xE000EDF0)
T560C 000:364.383 - 0.987ms returns 0 (0x00000000)
T560C 000:364.407 JLINK_WriteU32_64(0xE000EDFC, 0x01000000)
T560C 000:364.415   Debug reg: DEMCR
T560C 000:364.429   CPU_WriteMem(4 bytes @ 0xE000EDFC)
T560C 000:365.203 - 0.805ms returns 0 (0x00000000)
T560C 000:373.619 JLINK_GetHWStatus(...)
T560C 000:374.135 - 0.526ms returns 0
T560C 000:378.902 JLINK_GetNumBPUnits(Type = 0xFFFFFF00)
T560C 000:378.917 - 0.018ms returns 0x06
T560C 000:378.925 JLINK_GetNumBPUnits(Type = 0xF0)
T560C 000:378.930 - 0.008ms returns 0x2000
T560C 000:378.937 JLINK_GetNumWPUnits()
T560C 000:378.943 - 0.008ms returns 4
T560C 000:385.017 JLINK_GetSpeed()
T560C 000:385.043 - 0.028ms returns 4000
T560C 000:388.364 JLINK_ReadMemU32(0xE000E004, 0x1 Items)
T560C 000:388.395   CPU_ReadMem(4 bytes @ 0xE000E004)
T560C 000:388.981   Data:  02 00 00 00
T560C 000:388.999 - 0.638ms returns 1 (0x1)
T560C 000:389.009 JLINK_ReadMemU32(0xE000E004, 0x1 Items)
T560C 000:389.020   CPU_ReadMem(4 bytes @ 0xE000E004)
T560C 000:389.635   Data:  02 00 00 00
T560C 000:389.651 - 0.644ms returns 1 (0x1)
T560C 000:389.660 JLINK_WriteMemEx(0xE0001000, 0x0000001C Bytes, Flags = 0x02000004)
T560C 000:389.667   Data:  01 00 00 00 00 00 00 00 00 00 00 00 00 00 00 00 ...
T560C 000:389.686   CPU_WriteMem(28 bytes @ 0xE0001000)
T560C 000:390.513 - 0.862ms returns 0x1C
T560C 000:390.541 JLINK_Halt()
T560C 000:390.548 - 0.009ms returns 0x00
T560C 000:390.558 JLINK_IsHalted()
T560C 000:390.565 - 0.009ms returns TRUE
T560C 000:393.808 JLINK_WriteMem(0x20000000, 0x184 Bytes, ...)
T560C 000:393.820   Data:  00 BE 0A E0 0D 78 2D 06 68 40 08 24 40 00 00 D3 ...
T560C 000:394.086   CPU_WriteMem(388 bytes @ 0x20000000)
T560C 000:396.984 - 3.186ms returns 0x184
T560C 000:397.027 JLINK_HasError()
T560C 000:397.037 JLINK_WriteReg(R0, 0x08000000)
T560C 000:397.047 - 0.012ms returns 0
T560C 000:397.054 JLINK_WriteReg(R1, 0x017D7840)
T560C 000:397.060 - 0.009ms returns 0
T560C 000:397.067 JLINK_WriteReg(R2, 0x00000001)
T560C 000:397.073 - 0.009ms returns 0
T560C 000:397.080 JLINK_WriteReg(R3, 0x00000000)
T560C 000:397.086 - 0.008ms returns 0
T560C 000:397.093 JLINK_WriteReg(R4, 0x00000000)
T560C 000:397.099 - 0.008ms returns 0
T560C 000:397.106 JLINK_WriteReg(R5, 0x00000000)
T560C 000:397.112 - 0.009ms returns 0
T560C 000:397.118 JLINK_WriteReg(R6, 0x00000000)
T560C 000:397.125 - 0.009ms returns 0
T560C 000:397.131 JLINK_WriteReg(R7, 0x00000000)
T560C 000:397.137 - 0.008ms returns 0
T560C 000:397.144 JLINK_WriteReg(R8, 0x00000000)
T560C 000:397.165 - 0.023ms returns 0
T560C 000:397.172 JLINK_WriteReg(R9, 0x20000180)
T560C 000:397.178 - 0.008ms returns 0
T560C 000:397.185 JLINK_WriteReg(R10, 0x00000000)
T560C 000:397.191 - 0.008ms returns 0
T560C 000:397.197 JLINK_WriteReg(R11, 0x00000000)
T560C 000:397.203 - 0.008ms returns 0
T560C 000:397.210 JLINK_WriteReg(R12, 0x00000000)
T560C 000:397.216 - 0.008ms returns 0
T560C 000:397.223 JLINK_WriteReg(R13 (SP), 0x20001000)
T560C 000:397.229 - 0.012ms returns 0
T560C 000:397.241 JLINK_WriteReg(R14, 0x20000001)
T560C 000:397.247 - 0.009ms returns 0
T560C 000:397.254 JLINK_WriteReg(R15 (PC), 0x20000054)
T560C 000:397.260 - 0.009ms returns 0
T560C 000:397.267 JLINK_WriteReg(XPSR, 0x01000000)
T560C 000:397.273 - 0.008ms returns 0
T560C 000:397.280 JLINK_WriteReg(MSP, 0x20001000)
T560C 000:397.286 - 0.008ms returns 0
T560C 000:397.293 JLINK_WriteReg(PSP, 0x20001000)
T560C 000:397.299 - 0.009ms returns 0
T560C 000:397.305 JLINK_WriteReg(CFBP, 0x00000000)
T560C 000:397.311 - 0.008ms returns 0
T560C 000:397.319 JLINK_SetBPEx(Addr = 0x20000000, Type = 0xFFFFFFF2)
T560C 000:397.335   CPU_ReadMem(2 bytes @ 0x20000000)
T560C 000:397.921 - 0.609ms returns 0x00000001
T560C 000:397.934 JLINK_Go()
T560C 000:397.943   CPU_WriteMem(2 bytes @ 0x20000000)
T560C 000:398.563   CPU_ReadMem(4 bytes @ 0xE0001000)
T560C 000:399.141   CPU_WriteMem(4 bytes @ 0xE0002008)
T560C 000:399.154   CPU_WriteMem(4 bytes @ 0xE000200C)
T560C 000:399.163   CPU_WriteMem(4 bytes @ 0xE0002010)
T560C 000:399.171   CPU_WriteMem(4 bytes @ 0xE0002014)
T560C 000:399.179   CPU_WriteMem(4 bytes @ 0xE0002018)
T560C 000:399.187   CPU_WriteMem(4 bytes @ 0xE000201C)
T560C 000:401.050   CPU_WriteMem(4 bytes @ 0xE0001004)
T560C 000:405.183 - 7.268ms
T560C 000:405.211 JLINK_IsHalted()
T560C 000:408.881   CPU_ReadMem(2 bytes @ 0x20000000)
T560C 000:409.466 - 4.262ms returns TRUE
T560C 000:409.480 JLINK_ReadReg(R15 (PC))
T560C 000:409.489 - 0.011ms returns 0x20000000
T560C 000:409.497 JLINK_ClrBPEx(BPHandle = 0x00000001)
T560C 000:409.503 - 0.009ms returns 0x00
T560C 000:409.510 JLINK_ReadReg(R0)
T560C 000:409.516 - 0.009ms returns 0x00000000
T560C 000:409.934 JLINK_HasError()
T560C 000:409.946 JLINK_WriteReg(R0, 0x08000000)
T560C 000:409.954 - 0.011ms returns 0
T560C 000:409.961 JLINK_WriteReg(R1, 0x00004000)
T560C 000:409.967 - 0.009ms returns 0
T560C 000:409.974 JLINK_WriteReg(R2, 0x000000FF)
T560C 000:409.980 - 0.008ms returns 0
T560C 000:409.987 JLINK_WriteReg(R3, 0x00000000)
T560C 000:409.993 - 0.008ms returns 0
T560C 000:410.000 JLINK_WriteReg(R4, 0x00000000)
T560C 000:410.006 - 0.008ms returns 0
T560C 000:410.012 JLINK_WriteReg(R5, 0x00000000)
T560C 000:410.019 - 0.009ms returns 0
T560C 000:410.026 JLINK_WriteReg(R6, 0x00000000)
T560C 000:410.032 - 0.008ms returns 0
T560C 000:410.038 JLINK_WriteReg(R7, 0x00000000)
T560C 000:410.044 - 0.008ms returns 0
T560C 000:410.051 JLINK_WriteReg(R8, 0x00000000)
T560C 000:410.057 - 0.008ms returns 0
T560C 000:410.064 JLINK_WriteReg(R9, 0x20000180)
T560C 000:410.070 - 0.008ms returns 0
T560C 000:410.077 JLINK_WriteReg(R10, 0x00000000)
T560C 000:410.083 - 0.009ms returns 0
T560C 000:410.089 JLINK_WriteReg(R11, 0x00000000)
T560C 000:410.095 - 0.008ms returns 0
T560C 000:410.102 JLINK_WriteReg(R12, 0x00000000)
T560C 000:410.108 - 0.008ms returns 0
T560C 000:410.115 JLINK_WriteReg(R13 (SP), 0x20001000)
T560C 000:410.121 - 0.009ms returns 0
T560C 000:410.128 JLINK_WriteReg(R14, 0x20000001)
T560C 000:410.134 - 0.008ms returns 0
T560C 000:410.141 JLINK_WriteReg(R15 (PC), 0x20000020)
T560C 000:410.147 - 0.009ms returns 0
T560C 000:410.154 JLINK_WriteReg(XPSR, 0x01000000)
T560C 000:410.160 - 0.008ms returns 0
T560C 000:410.166 JLINK_WriteReg(MSP, 0x20001000)
T560C 000:410.172 - 0.008ms returns 0
T560C 000:410.179 JLINK_WriteReg(PSP, 0x20001000)
T560C 000:410.185 - 0.009ms returns 0
T560C 000:410.192 JLINK_WriteReg(CFBP, 0x00000000)
T560C 000:410.198 - 0.008ms returns 0
T560C 000:410.205 JLINK_SetBPEx(Addr = 0x20000000, Type = 0xFFFFFFF2)
T560C 000:410.212 - 0.009ms returns 0x00000002
T560C 000:410.219 JLINK_Go()
T560C 000:410.231   CPU_ReadMem(4 bytes @ 0xE0001000)
T560C 000:414.382 - 4.177ms
T560C 000:414.404 JLINK_IsHalted()
T560C 000:417.958   CPU_ReadMem(2 bytes @ 0x20000000)
T560C 000:418.525 - 4.130ms returns TRUE
T560C 000:418.551 JLINK_ReadReg(R15 (PC))
T560C 000:418.561 - 0.012ms returns 0x20000000
T560C 000:418.568 JLINK_ClrBPEx(BPHandle = 0x00000002)
T560C 000:418.574 - 0.009ms returns 0x00
T560C 000:418.639 JLINK_ReadReg(R0)
T560C 000:418.651 - 0.015ms returns 0x00000001
T560C 000:418.659 JLINK_HasError()
T560C 000:418.667 JLINK_WriteReg(R0, 0x08000000)
T560C 000:418.674 - 0.009ms returns 0
T560C 000:418.682 JLINK_WriteReg(R1, 0x00004000)
T560C 000:418.688 - 0.009ms returns 0
T560C 000:418.698 JLINK_WriteReg(R2, 0x000000FF)
T560C 000:418.705 - 0.009ms returns 0
T560C 000:418.714 JLINK_WriteReg(R3, 0x00000000)
T560C 000:418.721 - 0.009ms returns 0
T560C 000:418.731 JLINK_WriteReg(R4, 0x00000000)
T560C 000:418.737 - 0.009ms returns 0
T560C 000:418.744 JLINK_WriteReg(R5, 0x00000000)
T560C 000:418.750 - 0.008ms returns 0
T560C 000:418.756 JLINK_WriteReg(R6, 0x00000000)
T560C 000:418.762 - 0.008ms returns 0
T560C 000:418.819 JLINK_WriteReg(R7, 0x00000000)
T560C 000:418.829 - 0.013ms returns 0
T560C 000:418.836 JLINK_WriteReg(R8, 0x00000000)
T560C 000:418.842 - 0.008ms returns 0
T560C 000:418.849 JLINK_WriteReg(R9, 0x20000180)
T560C 000:418.855 - 0.008ms returns 0
T560C 000:418.862 JLINK_WriteReg(R10, 0x00000000)
T560C 000:418.868 - 0.008ms returns 0
T560C 000:418.874 JLINK_WriteReg(R11, 0x00000000)
T560C 000:418.880 - 0.008ms returns 0
T560C 000:418.887 JLINK_WriteReg(R12, 0x00000000)
T560C 000:418.893 - 0.008ms returns 0
T560C 000:418.900 JLINK_WriteReg(R13 (SP), 0x20001000)
T560C 000:418.906 - 0.009ms returns 0
T560C 000:418.913 JLINK_WriteReg(R14, 0x20000001)
T560C 000:418.919 - 0.008ms returns 0
T560C 000:418.926 JLINK_WriteReg(R15 (PC), 0x200000C0)
T560C 000:418.932 - 0.009ms returns 0
T560C 000:418.939 JLINK_WriteReg(XPSR, 0x01000000)
T560C 000:418.945 - 0.008ms returns 0
T560C 000:418.951 JLINK_WriteReg(MSP, 0x20001000)
T560C 000:418.958 - 0.008ms returns 0
T560C 000:418.964 JLINK_WriteReg(PSP, 0x20001000)
T560C 000:418.970 - 0.008ms returns 0
T560C 000:418.977 JLINK_WriteReg(CFBP, 0x00000000)
T560C 000:418.983 - 0.008ms returns 0
T560C 000:418.990 JLINK_SetBPEx(Addr = 0x20000000, Type = 0xFFFFFFF2)
T560C 000:418.997 - 0.010ms returns 0x00000003
T560C 000:419.004 JLINK_Go()
T560C 000:419.016   CPU_ReadMem(4 bytes @ 0xE0001000)
T560C 000:423.102 - 4.109ms
T560C 000:423.120 JLINK_IsHalted()
T560C 000:423.714 - 0.603ms returns FALSE
T560C 000:423.730 JLINK_HasError()
T560C 000:450.355 JLINK_IsHalted()
T560C 000:451.186 - 0.846ms returns FALSE
T560C 000:451.210 JLINK_HasError()
T560C 000:452.339 JLINK_IsHalted()
T560C 000:452.931 - 0.602ms returns FALSE
T560C 000:452.949 JLINK_HasError()
T560C 000:454.356 JLINK_IsHalted()
T560C 000:455.022 - 0.675ms returns FALSE
T560C 000:455.039 JLINK_HasError()
T560C 000:456.356 JLINK_IsHalted()
T560C 000:456.942 - 0.597ms returns FALSE
T560C 000:456.960 JLINK_HasError()
T560C 000:458.841 JLINK_IsHalted()
T560C 000:459.492 - 0.660ms returns FALSE
T560C 000:459.507 JLINK_HasError()
T560C 000:461.832 JLINK_IsHalted()
T560C 000:462.429 - 0.604ms returns FALSE
T560C 000:462.443 JLINK_HasError()
T560C 000:463.831 JLINK_IsHalted()
T560C 000:464.420 - 0.597ms returns FALSE
T560C 000:464.434 JLINK_HasError()
T560C 000:465.831 JLINK_IsHalted()
T560C 000:466.477 - 0.652ms returns FALSE
T560C 000:466.491 JLINK_HasError()
T560C 000:467.832 JLINK_IsHalted()
T560C 000:468.405 - 0.579ms returns FALSE
T560C 000:468.418 JLINK_HasError()
T560C 000:470.438 JLINK_IsHalted()
T560C 000:471.121 - 0.690ms returns FALSE
T560C 000:471.135 JLINK_HasError()
T560C 000:472.437 JLINK_IsHalted()
T560C 000:473.051 - 0.622ms returns FALSE
T560C 000:473.065 JLINK_HasError()
T560C 000:474.437 JLINK_IsHalted()
T560C 000:475.110 - 0.680ms returns FALSE
T560C 000:475.123 JLINK_HasError()
T560C 000:476.409 JLINK_IsHalted()
T560C 000:476.999 - 0.597ms returns FALSE
T560C 000:477.013 JLINK_HasError()
T560C 000:478.941 JLINK_IsHalted()
T560C 000:479.688 - 0.757ms returns FALSE
T560C 000:479.705 JLINK_HasError()
T560C 000:480.954 JLINK_IsHalted()
T560C 000:481.707 - 0.764ms returns FALSE
T560C 000:481.725 JLINK_HasError()
T560C 000:482.926 JLINK_IsHalted()
T560C 000:483.592 - 0.675ms returns FALSE
T560C 000:483.616 JLINK_HasError()
T560C 000:484.932 JLINK_IsHalted()
T560C 000:485.592 - 0.670ms returns FALSE
T560C 000:485.609 JLINK_HasError()
T560C 000:555.297 JLINK_IsHalted()
T560C 000:555.955 - 0.669ms returns FALSE
T560C 000:555.974 JLINK_HasError()
T560C 000:623.367 JLINK_IsHalted()
T560C 000:623.998 - 0.641ms returns FALSE
T560C 000:624.014 JLINK_HasError()
T560C 000:690.003 JLINK_IsHalted()
T560C 000:690.605 - 0.611ms returns FALSE
T560C 000:690.622 JLINK_HasError()
T560C 000:728.779 JLINK_IsHalted()
T560C 000:729.403 - 0.636ms returns FALSE
T560C 000:729.423 JLINK_HasError()
T560C 000:731.774 JLINK_IsHalted()
T560C 000:732.380 - 0.612ms returns FALSE
T560C 000:732.393 JLINK_HasError()
T560C 000:735.284 JLINK_IsHalted()
T560C 000:735.865 - 0.589ms returns FALSE
T560C 000:735.880 JLINK_HasError()
T560C 000:747.797 JLINK_IsHalted()
T560C 000:748.443 - 0.655ms returns FALSE
T560C 000:748.460 JLINK_HasError()
T560C 000:760.357 JLINK_IsHalted()
T560C 000:761.020 - 0.684ms returns FALSE
T560C 000:761.052 JLINK_HasError()
T560C 000:813.773 JLINK_IsHalted()
T560C 000:817.419   CPU_ReadMem(2 bytes @ 0x20000000)
T560C 000:818.060 - 4.303ms returns TRUE
T560C 000:818.086 JLINK_ReadReg(R15 (PC))
T560C 000:818.096 - 0.013ms returns 0x20000000
T560C 000:818.104 JLINK_ClrBPEx(BPHandle = 0x00000003)
T560C 000:818.111 - 0.010ms returns 0x00
T560C 000:818.118 JLINK_ReadReg(R0)
T560C 000:818.125 - 0.009ms returns 0x00000000
T560C 000:818.907 JLINK_HasError()
T560C 000:818.927 JLINK_WriteReg(R0, 0x08004000)
T560C 000:818.937 - 0.012ms returns 0
T560C 000:818.945 JLINK_WriteReg(R1, 0x00004000)
T560C 000:818.951 - 0.009ms returns 0
T560C 000:818.958 JLINK_WriteReg(R2, 0x000000FF)
T560C 000:818.964 - 0.008ms returns 0
T560C 000:818.971 JLINK_WriteReg(R3, 0x00000000)
T560C 000:818.977 - 0.009ms returns 0
T560C 000:818.984 JLINK_WriteReg(R4, 0x00000000)
T560C 000:818.990 - 0.008ms returns 0
T560C 000:818.996 JLINK_WriteReg(R5, 0x00000000)
T560C 000:819.002 - 0.008ms returns 0
T560C 000:819.009 JLINK_WriteReg(R6, 0x00000000)
T560C 000:819.015 - 0.008ms returns 0
T560C 000:819.022 JLINK_WriteReg(R7, 0x00000000)
T560C 000:819.028 - 0.008ms returns 0
T560C 000:819.035 JLINK_WriteReg(R8, 0x00000000)
T560C 000:819.041 - 0.008ms returns 0
T560C 000:819.047 JLINK_WriteReg(R9, 0x20000180)
T560C 000:819.053 - 0.008ms returns 0
T560C 000:819.060 JLINK_WriteReg(R10, 0x00000000)
T560C 000:819.067 - 0.009ms returns 0
T560C 000:819.073 JLINK_WriteReg(R11, 0x00000000)
T560C 000:819.079 - 0.008ms returns 0
T560C 000:819.086 JLINK_WriteReg(R12, 0x00000000)
T560C 000:819.092 - 0.008ms returns 0
T560C 000:819.099 JLINK_WriteReg(R13 (SP), 0x20001000)
T560C 000:819.105 - 0.009ms returns 0
T560C 000:819.112 JLINK_WriteReg(R14, 0x20000001)
T560C 000:819.118 - 0.008ms returns 0
T560C 000:819.125 JLINK_WriteReg(R15 (PC), 0x20000020)
T560C 000:819.132 - 0.009ms returns 0
T560C 000:819.138 JLINK_WriteReg(XPSR, 0x01000000)
T560C 000:819.144 - 0.008ms returns 0
T560C 000:819.151 JLINK_WriteReg(MSP, 0x20001000)
T560C 000:819.157 - 0.008ms returns 0
T560C 000:819.164 JLINK_WriteReg(PSP, 0x20001000)
T560C 000:819.170 - 0.008ms returns 0
T560C 000:819.176 JLINK_WriteReg(CFBP, 0x00000000)
T560C 000:819.183 - 0.009ms returns 0
T560C 000:819.190 JLINK_SetBPEx(Addr = 0x20000000, Type = 0xFFFFFFF2)
T560C 000:819.198 - 0.010ms returns 0x00000004
T560C 000:819.206 JLINK_Go()
T560C 000:819.220   CPU_ReadMem(4 bytes @ 0xE0001000)
T560C 000:823.354 - 4.164ms
T560C 000:823.378 JLINK_IsHalted()
T560C 000:826.939   CPU_ReadMem(2 bytes @ 0x20000000)
T560C 000:827.538 - 4.170ms returns TRUE
T560C 000:827.564 JLINK_ReadReg(R15 (PC))
T560C 000:827.574 - 0.012ms returns 0x20000000
T560C 000:827.585 JLINK_ClrBPEx(BPHandle = 0x00000004)
T560C 000:827.592 - 0.009ms returns 0x00
T560C 000:827.602 JLINK_ReadReg(R0)
T560C 000:827.609 - 0.009ms returns 0x00000001
T560C 000:827.619 JLINK_HasError()
T560C 000:827.673 JLINK_WriteReg(R0, 0x08004000)
T560C 000:827.687 - 0.017ms returns 0
T560C 000:827.695 JLINK_WriteReg(R1, 0x00004000)
T560C 000:827.711 - 0.018ms returns 0
T560C 000:827.718 JLINK_WriteReg(R2, 0x000000FF)
T560C 000:827.724 - 0.008ms returns 0
T560C 000:827.731 JLINK_WriteReg(R3, 0x00000000)
T560C 000:827.737 - 0.008ms returns 0
T560C 000:827.744 JLINK_WriteReg(R4, 0x00000000)
T560C 000:827.750 - 0.008ms returns 0
T560C 000:827.756 JLINK_WriteReg(R5, 0x00000000)
T560C 000:827.762 - 0.008ms returns 0
T560C 000:827.769 JLINK_WriteReg(R6, 0x00000000)
T560C 000:827.775 - 0.008ms returns 0
T560C 000:827.782 JLINK_WriteReg(R7, 0x00000000)
T560C 000:827.788 - 0.009ms returns 0
T560C 000:827.795 JLINK_WriteReg(R8, 0x00000000)
T560C 000:827.801 - 0.008ms returns 0
T560C 000:827.808 JLINK_WriteReg(R9, 0x20000180)
T560C 000:827.814 - 0.008ms returns 0
T560C 000:827.821 JLINK_WriteReg(R10, 0x00000000)
T560C 000:827.826 - 0.008ms returns 0
T560C 000:827.833 JLINK_WriteReg(R11, 0x00000000)
T560C 000:827.839 - 0.008ms returns 0
T560C 000:827.846 JLINK_WriteReg(R12, 0x00000000)
T560C 000:827.852 - 0.008ms returns 0
T560C 000:827.859 JLINK_WriteReg(R13 (SP), 0x20001000)
T560C 000:827.865 - 0.009ms returns 0
T560C 000:827.872 JLINK_WriteReg(R14, 0x20000001)
T560C 000:827.878 - 0.008ms returns 0
T560C 000:827.885 JLINK_WriteReg(R15 (PC), 0x200000C0)
T560C 000:827.891 - 0.008ms returns 0
T560C 000:827.897 JLINK_WriteReg(XPSR, 0x01000000)
T560C 000:827.903 - 0.008ms returns 0
T560C 000:827.910 JLINK_WriteReg(MSP, 0x20001000)
T560C 000:827.916 - 0.008ms returns 0
T560C 000:827.923 JLINK_WriteReg(PSP, 0x20001000)
T560C 000:827.929 - 0.008ms returns 0
T560C 000:827.936 JLINK_WriteReg(CFBP, 0x00000000)
T560C 000:827.942 - 0.008ms returns 0
T560C 000:827.949 JLINK_SetBPEx(Addr = 0x20000000, Type = 0xFFFFFFF2)
T560C 000:827.956 - 0.010ms returns 0x00000005
T560C 000:827.963 JLINK_Go()
T560C 000:827.974   CPU_ReadMem(4 bytes @ 0xE0001000)
T560C 000:832.110 - 4.158ms
T560C 000:832.128 JLINK_IsHalted()
T560C 000:832.701 - 0.585ms returns FALSE
T560C 000:832.720 JLINK_HasError()
T560C 000:897.872 JLINK_IsHalted()
T560C 000:898.501 - 0.636ms returns FALSE
T560C 000:898.515 JLINK_HasError()
T560C 000:935.542 JLINK_IsHalted()
T560C 000:936.178 - 0.644ms returns FALSE
T560C 000:936.194 JLINK_HasError()
T560C 000:952.296 JLINK_IsHalted()
T560C 000:952.917 - 0.631ms returns FALSE
T560C 000:952.935 JLINK_HasError()
T560C 001:015.883 JLINK_IsHalted()
T560C 001:016.531 - 0.662ms returns FALSE
T560C 001:016.554 JLINK_HasError()
T560C 001:083.066 JLINK_IsHalted()
T560C 001:083.702 - 0.648ms returns FALSE
T560C 001:083.722 JLINK_HasError()
T560C 001:120.101 JLINK_IsHalted()
T560C 001:120.700 - 0.611ms returns FALSE
T560C 001:120.719 JLINK_HasError()
T560C 001:180.008 JLINK_IsHalted()
T560C 001:183.634   CPU_ReadMem(2 bytes @ 0x20000000)
T560C 001:184.243 - 4.241ms returns TRUE
T560C 001:184.266 JLINK_ReadReg(R15 (PC))
T560C 001:184.276 - 0.012ms returns 0x20000000
T560C 001:184.286 JLINK_ClrBPEx(BPHandle = 0x00000005)
T560C 001:184.293 - 0.009ms returns 0x00
T560C 001:184.303 JLINK_ReadReg(R0)
T560C 001:184.309 - 0.009ms returns 0x00000000
T560C 001:184.669 JLINK_HasError()
T560C 001:184.681 JLINK_WriteReg(R0, 0x00000001)
T560C 001:184.689 - 0.011ms returns 0
T560C 001:184.696 JLINK_WriteReg(R1, 0x00004000)
T560C 001:184.702 - 0.009ms returns 0
T560C 001:184.709 JLINK_WriteReg(R2, 0x000000FF)
T560C 001:184.715 - 0.008ms returns 0
T560C 001:184.722 JLINK_WriteReg(R3, 0x00000000)
T560C 001:184.728 - 0.009ms returns 0
T560C 001:184.734 JLINK_WriteReg(R4, 0x00000000)
T560C 001:184.740 - 0.008ms returns 0
T560C 001:184.747 JLINK_WriteReg(R5, 0x00000000)
T560C 001:184.753 - 0.010ms returns 0
T560C 001:184.761 JLINK_WriteReg(R6, 0x00000000)
T560C 001:184.767 - 0.008ms returns 0
T560C 001:184.774 JLINK_WriteReg(R7, 0x00000000)
T560C 001:184.780 - 0.009ms returns 0
T560C 001:184.787 JLINK_WriteReg(R8, 0x00000000)
T560C 001:184.793 - 0.008ms returns 0
T560C 001:184.800 JLINK_WriteReg(R9, 0x20000180)
T560C 001:184.805 - 0.008ms returns 0
T560C 001:184.812 JLINK_WriteReg(R10, 0x00000000)
T560C 001:184.824 - 0.017ms returns 0
T560C 001:184.834 JLINK_WriteReg(R11, 0x00000000)
T560C 001:184.840 - 0.008ms returns 0
T560C 001:184.847 JLINK_WriteReg(R12, 0x00000000)
T560C 001:184.853 - 0.008ms returns 0
T560C 001:184.860 JLINK_WriteReg(R13 (SP), 0x20001000)
T560C 001:184.866 - 0.009ms returns 0
T560C 001:184.873 JLINK_WriteReg(R14, 0x20000001)
T560C 001:184.879 - 0.008ms returns 0
T560C 001:184.886 JLINK_WriteReg(R15 (PC), 0x20000086)
T560C 001:184.892 - 0.009ms returns 0
T560C 001:184.899 JLINK_WriteReg(XPSR, 0x01000000)
T560C 001:184.905 - 0.008ms returns 0
T560C 001:184.911 JLINK_WriteReg(MSP, 0x20001000)
T560C 001:184.918 - 0.009ms returns 0
T560C 001:184.924 JLINK_WriteReg(PSP, 0x20001000)
T560C 001:184.931 - 0.009ms returns 0
T560C 001:184.937 JLINK_WriteReg(CFBP, 0x00000000)
T560C 001:184.943 - 0.008ms returns 0
T560C 001:184.950 JLINK_SetBPEx(Addr = 0x20000000, Type = 0xFFFFFFF2)
T560C 001:184.957 - 0.009ms returns 0x00000006
T560C 001:184.964 JLINK_Go()
T560C 001:184.976   CPU_ReadMem(4 bytes @ 0xE0001000)
T560C 001:189.058 - 4.115ms
T560C 001:189.091 JLINK_IsHalted()
T560C 001:192.660   CPU_ReadMem(2 bytes @ 0x20000000)
T560C 001:193.235 - 4.154ms returns TRUE
T560C 001:193.252 JLINK_ReadReg(R15 (PC))
T560C 001:193.262 - 0.013ms returns 0x20000000
T560C 001:193.269 JLINK_ClrBPEx(BPHandle = 0x00000006)
T560C 001:193.276 - 0.009ms returns 0x00
T560C 001:193.283 JLINK_ReadReg(R0)
T560C 001:193.289 - 0.009ms returns 0x00000000
T560C 001:251.940 JLINK_WriteMem(0x20000000, 0x184 Bytes, ...)
T560C 001:251.955   Data:  00 BE 0A E0 0D 78 2D 06 68 40 08 24 40 00 00 D3 ...
T560C 001:251.978   CPU_WriteMem(388 bytes @ 0x20000000)
T560C 001:254.934 - 3.008ms returns 0x184
T560C 001:254.981 JLINK_HasError()
T560C 001:254.991 JLINK_WriteReg(R0, 0x08000000)
T560C 001:255.001 - 0.013ms returns 0
T560C 001:255.009 JLINK_WriteReg(R1, 0x017D7840)
T560C 001:255.015 - 0.009ms returns 0
T560C 001:255.022 JLINK_WriteReg(R2, 0x00000002)
T560C 001:255.028 - 0.009ms returns 0
T560C 001:255.035 JLINK_WriteReg(R3, 0x00000000)
T560C 001:255.041 - 0.008ms returns 0
T560C 001:255.048 JLINK_WriteReg(R4, 0x00000000)
T560C 001:255.054 - 0.008ms returns 0
T560C 001:255.061 JLINK_WriteReg(R5, 0x00000000)
T560C 001:255.067 - 0.008ms returns 0
T560C 001:255.073 JLINK_WriteReg(R6, 0x00000000)
T560C 001:255.079 - 0.008ms returns 0
T560C 001:255.086 JLINK_WriteReg(R7, 0x00000000)
T560C 001:255.092 - 0.008ms returns 0
T560C 001:255.098 JLINK_WriteReg(R8, 0x00000000)
T560C 001:255.105 - 0.008ms returns 0
T560C 001:255.111 JLINK_WriteReg(R9, 0x20000180)
T560C 001:255.117 - 0.008ms returns 0
T560C 001:255.124 JLINK_WriteReg(R10, 0x00000000)
T560C 001:255.130 - 0.009ms returns 0
T560C 001:255.137 JLINK_WriteReg(R11, 0x00000000)
T560C 001:255.142 - 0.008ms returns 0
T560C 001:255.149 JLINK_WriteReg(R12, 0x00000000)
T560C 001:255.155 - 0.008ms returns 0
T560C 001:255.162 JLINK_WriteReg(R13 (SP), 0x20001000)
T560C 001:255.169 - 0.009ms returns 0
T560C 001:255.175 JLINK_WriteReg(R14, 0x20000001)
T560C 001:255.181 - 0.008ms returns 0
T560C 001:255.188 JLINK_WriteReg(R15 (PC), 0x20000054)
T560C 001:255.194 - 0.008ms returns 0
T560C 001:255.201 JLINK_WriteReg(XPSR, 0x01000000)
T560C 001:255.207 - 0.009ms returns 0
T560C 001:255.214 JLINK_WriteReg(MSP, 0x20001000)
T560C 001:255.220 - 0.008ms returns 0
T560C 001:255.226 JLINK_WriteReg(PSP, 0x20001000)
T560C 001:255.232 - 0.008ms returns 0
T560C 001:255.239 JLINK_WriteReg(CFBP, 0x00000000)
T560C 001:255.245 - 0.008ms returns 0
T560C 001:255.252 JLINK_SetBPEx(Addr = 0x20000000, Type = 0xFFFFFFF2)
T560C 001:255.263   CPU_ReadMem(2 bytes @ 0x20000000)
T560C 001:255.987 - 0.741ms returns 0x00000007
T560C 001:256.000 JLINK_Go()
T560C 001:256.009   CPU_WriteMem(2 bytes @ 0x20000000)
T560C 001:256.649   CPU_ReadMem(4 bytes @ 0xE0001000)
T560C 001:260.947 - 4.958ms
T560C 001:260.976 JLINK_IsHalted()
T560C 001:264.572   CPU_ReadMem(2 bytes @ 0x20000000)
T560C 001:265.199 - 4.232ms returns TRUE
T560C 001:265.224 JLINK_ReadReg(R15 (PC))
T560C 001:265.288 - 0.066ms returns 0x20000000
T560C 001:265.301 JLINK_ClrBPEx(BPHandle = 0x00000007)
T560C 001:265.308 - 0.010ms returns 0x00
T560C 001:265.315 JLINK_ReadReg(R0)
T560C 001:265.321 - 0.009ms returns 0x00000000
T560C 001:265.701 JLINK_WriteMem(0x20000184, 0x27C Bytes, ...)
T560C 001:265.712   Data:  00 58 00 20 71 02 00 08 2D 1E 00 08 33 1D 00 08 ...
T560C 001:265.729   CPU_WriteMem(636 bytes @ 0x20000184)
T560C 001:270.071 - 4.395ms returns 0x27C
T560C 001:270.107 JLINK_WriteMem(0x20000400, 0x184 Bytes, ...)
T560C 001:270.114   Data:  FE E7 FE E7 FE E7 FE E7 FE E7 FE E7 FE E7 FE E7 ...
T560C 001:270.137   CPU_WriteMem(388 bytes @ 0x20000400)
T560C 001:272.962 - 2.866ms returns 0x184
T560C 001:272.982 JLINK_HasError()
T560C 001:272.990 JLINK_WriteReg(R0, 0x08000000)
T560C 001:273.000 - 0.012ms returns 0
T560C 001:273.007 JLINK_WriteReg(R1, 0x00000400)
T560C 001:273.014 - 0.009ms returns 0
T560C 001:273.021 JLINK_WriteReg(R2, 0x20000184)
T560C 001:273.027 - 0.008ms returns 0
T560C 001:273.033 JLINK_WriteReg(R3, 0x00000000)
T560C 001:273.039 - 0.009ms returns 0
T560C 001:273.046 JLINK_WriteReg(R4, 0x00000000)
T560C 001:273.052 - 0.008ms returns 0
T560C 001:273.059 JLINK_WriteReg(R5, 0x00000000)
T560C 001:273.065 - 0.008ms returns 0
T560C 001:273.072 JLINK_WriteReg(R6, 0x00000000)
T560C 001:273.078 - 0.008ms returns 0
T560C 001:273.085 JLINK_WriteReg(R7, 0x00000000)
T560C 001:273.091 - 0.009ms returns 0
T560C 001:273.098 JLINK_WriteReg(R8, 0x00000000)
T560C 001:273.104 - 0.009ms returns 0
T560C 001:273.111 JLINK_WriteReg(R9, 0x20000180)
T560C 001:273.117 - 0.008ms returns 0
T560C 001:273.123 JLINK_WriteReg(R10, 0x00000000)
T560C 001:273.130 - 0.008ms returns 0
T560C 001:273.136 JLINK_WriteReg(R11, 0x00000000)
T560C 001:273.142 - 0.008ms returns 0
T560C 001:273.149 JLINK_WriteReg(R12, 0x00000000)
T560C 001:273.155 - 0.008ms returns 0
T560C 001:273.162 JLINK_WriteReg(R13 (SP), 0x20001000)
T560C 001:273.169 - 0.010ms returns 0
T560C 001:273.176 JLINK_WriteReg(R14, 0x20000001)
T560C 001:273.182 - 0.008ms returns 0
T560C 001:273.189 JLINK_WriteReg(R15 (PC), 0x2000010C)
T560C 001:273.195 - 0.009ms returns 0
T560C 001:273.202 JLINK_WriteReg(XPSR, 0x01000000)
T560C 001:273.208 - 0.008ms returns 0
T560C 001:273.215 JLINK_WriteReg(MSP, 0x20001000)
T560C 001:273.264 - 0.061ms returns 0
T560C 001:273.283 JLINK_WriteReg(PSP, 0x20001000)
T560C 001:273.290 - 0.010ms returns 0
T560C 001:273.298 JLINK_WriteReg(CFBP, 0x00000000)
T560C 001:273.304 - 0.010ms returns 0
T560C 001:273.312 JLINK_SetBPEx(Addr = 0x20000000, Type = 0xFFFFFFF2)
T560C 001:273.320 - 0.010ms returns 0x00000008
T560C 001:273.327 JLINK_Go()
T560C 001:273.339   CPU_ReadMem(4 bytes @ 0xE0001000)
T560C 001:277.506 - 4.187ms
T560C 001:277.520 JLINK_IsHalted()
T560C 001:278.178 - 0.664ms returns FALSE
T560C 001:278.191 JLINK_HasError()
T560C 001:297.768 JLINK_IsHalted()
T560C 001:301.597   CPU_ReadMem(2 bytes @ 0x20000000)
T560C 001:302.233 - 4.475ms returns TRUE
T560C 001:302.252 JLINK_ReadReg(R15 (PC))
T560C 001:302.262 - 0.013ms returns 0x20000000
T560C 001:302.270 JLINK_ClrBPEx(BPHandle = 0x00000008)
T560C 001:302.277 - 0.009ms returns 0x00
T560C 001:302.284 JLINK_ReadReg(R0)
T560C 001:302.290 - 0.009ms returns 0x00000000
T560C 001:302.940 JLINK_WriteMem(0x20000184, 0x27C Bytes, ...)
T560C 001:302.957   Data:  20 02 91 40 08 43 19 46 70 47 2D E9 FE 4F 80 46 ...
T560C 001:302.973   CPU_WriteMem(636 bytes @ 0x20000184)
T560C 001:307.221 - 4.306ms returns 0x27C
T560C 001:307.257 JLINK_WriteMem(0x20000400, 0x184 Bytes, ...)
T560C 001:307.264   Data:  A7 EB 06 08 10 1B D6 46 08 F2 FD 38 73 EB 05 00 ...
T560C 001:307.287   CPU_WriteMem(388 bytes @ 0x20000400)
T560C 001:310.192 - 2.945ms returns 0x184
T560C 001:310.210 JLINK_HasError()
T560C 001:310.218 JLINK_WriteReg(R0, 0x08000400)
T560C 001:310.227 - 0.011ms returns 0
T560C 001:310.234 JLINK_WriteReg(R1, 0x00000400)
T560C 001:310.241 - 0.009ms returns 0
T560C 001:310.247 JLINK_WriteReg(R2, 0x20000184)
T560C 001:310.259 - 0.017ms returns 0
T560C 001:310.270 JLINK_WriteReg(R3, 0x00000000)
T560C 001:310.276 - 0.008ms returns 0
T560C 001:310.282 JLINK_WriteReg(R4, 0x00000000)
T560C 001:310.288 - 0.008ms returns 0
T560C 001:310.295 JLINK_WriteReg(R5, 0x00000000)
T560C 001:310.301 - 0.008ms returns 0
T560C 001:310.308 JLINK_WriteReg(R6, 0x00000000)
T560C 001:310.314 - 0.008ms returns 0
T560C 001:310.321 JLINK_WriteReg(R7, 0x00000000)
T560C 001:310.327 - 0.008ms returns 0
T560C 001:310.333 JLINK_WriteReg(R8, 0x00000000)
T560C 001:310.339 - 0.008ms returns 0
T560C 001:310.346 JLINK_WriteReg(R9, 0x20000180)
T560C 001:310.352 - 0.008ms returns 0
T560C 001:310.359 JLINK_WriteReg(R10, 0x00000000)
T560C 001:310.365 - 0.009ms returns 0
T560C 001:310.372 JLINK_WriteReg(R11, 0x00000000)
T560C 001:310.378 - 0.008ms returns 0
T560C 001:310.385 JLINK_WriteReg(R12, 0x00000000)
T560C 001:310.391 - 0.008ms returns 0
T560C 001:310.397 JLINK_WriteReg(R13 (SP), 0x20001000)
T560C 001:310.404 - 0.009ms returns 0
T560C 001:310.411 JLINK_WriteReg(R14, 0x20000001)
T560C 001:310.417 - 0.008ms returns 0
T560C 001:310.424 JLINK_WriteReg(R15 (PC), 0x2000010C)
T560C 001:310.430 - 0.008ms returns 0
T560C 001:310.437 JLINK_WriteReg(XPSR, 0x01000000)
T560C 001:310.443 - 0.008ms returns 0
T560C 001:310.449 JLINK_WriteReg(MSP, 0x20001000)
T560C 001:310.455 - 0.008ms returns 0
T560C 001:310.462 JLINK_WriteReg(PSP, 0x20001000)
T560C 001:310.468 - 0.008ms returns 0
T560C 001:310.475 JLINK_WriteReg(CFBP, 0x00000000)
T560C 001:310.481 - 0.008ms returns 0
T560C 001:310.488 JLINK_SetBPEx(Addr = 0x20000000, Type = 0xFFFFFFF2)
T560C 001:310.495 - 0.010ms returns 0x00000009
T560C 001:310.502 JLINK_Go()
T560C 001:310.515   CPU_ReadMem(4 bytes @ 0xE0001000)
T560C 001:314.778 - 4.290ms
T560C 001:314.800 JLINK_IsHalted()
T560C 001:315.414 - 0.621ms returns FALSE
T560C 001:315.427 JLINK_HasError()
T560C 001:320.420 JLINK_IsHalted()
T560C 001:324.052   CPU_ReadMem(2 bytes @ 0x20000000)
T560C 001:324.677 - 4.264ms returns TRUE
T560C 001:324.692 JLINK_ReadReg(R15 (PC))
T560C 001:324.702 - 0.012ms returns 0x20000000
T560C 001:324.709 JLINK_ClrBPEx(BPHandle = 0x00000009)
T560C 001:324.715 - 0.009ms returns 0x00
T560C 001:324.722 JLINK_ReadReg(R0)
T560C 001:324.728 - 0.009ms returns 0x00000000
T560C 001:325.305 JLINK_WriteMem(0x20000184, 0x27C Bytes, ...)
T560C 001:325.317   Data:  0F 46 40 EA 0A 00 41 EA 0B 01 53 46 5A 46 08 43 ...
T560C 001:325.332   CPU_WriteMem(636 bytes @ 0x20000184)
T560C 001:329.593 - 4.299ms returns 0x27C
T560C 001:329.612 JLINK_WriteMem(0x20000400, 0x184 Bytes, ...)
T560C 001:329.619   Data:  02 26 0A E0 26 4E B2 42 01 D1 03 26 05 E0 25 4E ...
T560C 001:329.633   CPU_WriteMem(388 bytes @ 0x20000400)
T560C 001:332.646 - 3.048ms returns 0x184
T560C 001:332.669 JLINK_HasError()
T560C 001:332.678 JLINK_WriteReg(R0, 0x08000800)
T560C 001:332.688 - 0.013ms returns 0
T560C 001:332.695 JLINK_WriteReg(R1, 0x00000400)
T560C 001:332.702 - 0.009ms returns 0
T560C 001:332.709 JLINK_WriteReg(R2, 0x20000184)
T560C 001:332.715 - 0.009ms returns 0
T560C 001:332.722 JLINK_WriteReg(R3, 0x00000000)
T560C 001:332.729 - 0.009ms returns 0
T560C 001:332.735 JLINK_WriteReg(R4, 0x00000000)
T560C 001:332.741 - 0.008ms returns 0
T560C 001:332.748 JLINK_WriteReg(R5, 0x00000000)
T560C 001:332.754 - 0.008ms returns 0
T560C 001:332.761 JLINK_WriteReg(R6, 0x00000000)
T560C 001:332.767 - 0.009ms returns 0
T560C 001:332.774 JLINK_WriteReg(R7, 0x00000000)
T560C 001:332.780 - 0.008ms returns 0
T560C 001:332.786 JLINK_WriteReg(R8, 0x00000000)
T560C 001:332.792 - 0.009ms returns 0
T560C 001:332.799 JLINK_WriteReg(R9, 0x20000180)
T560C 001:332.805 - 0.008ms returns 0
T560C 001:332.812 JLINK_WriteReg(R10, 0x00000000)
T560C 001:332.818 - 0.008ms returns 0
T560C 001:332.825 JLINK_WriteReg(R11, 0x00000000)
T560C 001:332.831 - 0.008ms returns 0
T560C 001:332.837 JLINK_WriteReg(R12, 0x00000000)
T560C 001:332.843 - 0.008ms returns 0
T560C 001:332.850 JLINK_WriteReg(R13 (SP), 0x20001000)
T560C 001:332.857 - 0.009ms returns 0
T560C 001:332.869 JLINK_WriteReg(R14, 0x20000001)
T560C 001:332.878 - 0.012ms returns 0
T560C 001:332.885 JLINK_WriteReg(R15 (PC), 0x2000010C)
T560C 001:332.891 - 0.009ms returns 0
T560C 001:332.898 JLINK_WriteReg(XPSR, 0x01000000)
T560C 001:332.904 - 0.009ms returns 0
T560C 001:332.911 JLINK_WriteReg(MSP, 0x20001000)
T560C 001:332.917 - 0.008ms returns 0
T560C 001:332.924 JLINK_WriteReg(PSP, 0x20001000)
T560C 001:332.930 - 0.008ms returns 0
T560C 001:332.936 JLINK_WriteReg(CFBP, 0x00000000)
T560C 001:332.942 - 0.008ms returns 0
T560C 001:332.949 JLINK_SetBPEx(Addr = 0x20000000, Type = 0xFFFFFFF2)
T560C 001:332.957 - 0.010ms returns 0x0000000A
T560C 001:332.964 JLINK_Go()
T560C 001:332.978   CPU_ReadMem(4 bytes @ 0xE0001000)
T560C 001:337.392 - 4.447ms
T560C 001:337.420 JLINK_IsHalted()
T560C 001:338.025 - 0.615ms returns FALSE
T560C 001:338.043 JLINK_HasError()
T560C 001:344.072 JLINK_IsHalted()
T560C 001:347.647   CPU_ReadMem(2 bytes @ 0x20000000)
T560C 001:348.246 - 4.183ms returns TRUE
T560C 001:348.263 JLINK_ReadReg(R15 (PC))
T560C 001:348.272 - 0.012ms returns 0x20000000
T560C 001:348.280 JLINK_ClrBPEx(BPHandle = 0x0000000A)
T560C 001:348.286 - 0.009ms returns 0x00
T560C 001:348.293 JLINK_ReadReg(R0)
T560C 001:348.299 - 0.009ms returns 0x00000000
T560C 001:348.860 JLINK_WriteMem(0x20000184, 0x27C Bytes, ...)
T560C 001:348.872   Data:  19 20 00 F0 4B F8 07 48 04 60 00 E0 01 25 28 46 ...
T560C 001:348.887   CPU_WriteMem(636 bytes @ 0x20000184)
T560C 001:353.163 - 4.327ms returns 0x27C
T560C 001:353.199 JLINK_WriteMem(0x20000400, 0x184 Bytes, ...)
T560C 001:353.206   Data:  0D 48 00 68 20 F4 60 40 21 69 40 EA C1 00 0A 49 ...
T560C 001:353.227   CPU_WriteMem(388 bytes @ 0x20000400)
T560C 001:356.112 - 2.928ms returns 0x184
T560C 001:356.136 JLINK_HasError()
T560C 001:356.145 JLINK_WriteReg(R0, 0x08000C00)
T560C 001:356.156 - 0.013ms returns 0
T560C 001:356.163 JLINK_WriteReg(R1, 0x00000400)
T560C 001:356.169 - 0.008ms returns 0
T560C 001:356.176 JLINK_WriteReg(R2, 0x20000184)
T560C 001:356.182 - 0.008ms returns 0
T560C 001:356.189 JLINK_WriteReg(R3, 0x00000000)
T560C 001:356.195 - 0.008ms returns 0
T560C 001:356.201 JLINK_WriteReg(R4, 0x00000000)
T560C 001:356.208 - 0.009ms returns 0
T560C 001:356.214 JLINK_WriteReg(R5, 0x00000000)
T560C 001:356.220 - 0.008ms returns 0
T560C 001:356.227 JLINK_WriteReg(R6, 0x00000000)
T560C 001:356.233 - 0.009ms returns 0
T560C 001:356.240 JLINK_WriteReg(R7, 0x00000000)
T560C 001:356.246 - 0.008ms returns 0
T560C 001:356.252 JLINK_WriteReg(R8, 0x00000000)
T560C 001:356.259 - 0.008ms returns 0
T560C 001:356.265 JLINK_WriteReg(R9, 0x20000180)
T560C 001:356.271 - 0.008ms returns 0
T560C 001:356.278 JLINK_WriteReg(R10, 0x00000000)
T560C 001:356.284 - 0.008ms returns 0
T560C 001:356.290 JLINK_WriteReg(R11, 0x00000000)
T560C 001:356.296 - 0.008ms returns 0
T560C 001:356.303 JLINK_WriteReg(R12, 0x00000000)
T560C 001:356.309 - 0.008ms returns 0
T560C 001:356.316 JLINK_WriteReg(R13 (SP), 0x20001000)
T560C 001:356.323 - 0.009ms returns 0
T560C 001:356.329 JLINK_WriteReg(R14, 0x20000001)
T560C 001:356.335 - 0.009ms returns 0
T560C 001:356.342 JLINK_WriteReg(R15 (PC), 0x2000010C)
T560C 001:356.349 - 0.009ms returns 0
T560C 001:356.355 JLINK_WriteReg(XPSR, 0x01000000)
T560C 001:356.361 - 0.008ms returns 0
T560C 001:356.368 JLINK_WriteReg(MSP, 0x20001000)
T560C 001:356.374 - 0.009ms returns 0
T560C 001:356.381 JLINK_WriteReg(PSP, 0x20001000)
T560C 001:356.387 - 0.009ms returns 0
T560C 001:356.394 JLINK_WriteReg(CFBP, 0x00000000)
T560C 001:356.400 - 0.008ms returns 0
T560C 001:356.407 JLINK_SetBPEx(Addr = 0x20000000, Type = 0xFFFFFFF2)
T560C 001:356.415 - 0.010ms returns 0x0000000B
T560C 001:356.423 JLINK_Go()
T560C 001:356.436   CPU_ReadMem(4 bytes @ 0xE0001000)
T560C 001:360.514 - 4.099ms
T560C 001:360.529 JLINK_IsHalted()
T560C 001:361.149 - 0.630ms returns FALSE
T560C 001:361.166 JLINK_HasError()
T560C 001:367.709 JLINK_IsHalted()
T560C 001:371.389   CPU_ReadMem(2 bytes @ 0x20000000)
T560C 001:372.041 - 4.345ms returns TRUE
T560C 001:372.066 JLINK_ReadReg(R15 (PC))
T560C 001:372.075 - 0.012ms returns 0x20000000
T560C 001:372.083 JLINK_ClrBPEx(BPHandle = 0x0000000B)
T560C 001:372.089 - 0.009ms returns 0x00
T560C 001:372.096 JLINK_ReadReg(R0)
T560C 001:372.103 - 0.009ms returns 0x00000000
T560C 001:372.673 JLINK_WriteMem(0x20000184, 0x27C Bytes, ...)
T560C 001:372.684   Data:  40 78 7D 01 F8 B5 04 46 0C B9 01 20 F8 BD 20 78 ...
T560C 001:372.699   CPU_WriteMem(636 bytes @ 0x20000184)
T560C 001:376.951 - 4.291ms returns 0x27C
T560C 001:376.973 JLINK_WriteMem(0x20000400, 0x184 Bytes, ...)
T560C 001:376.981   Data:  40 F4 80 70 62 49 08 60 FF F7 50 FC 05 46 06 E0 ...
T560C 001:376.999   CPU_WriteMem(388 bytes @ 0x20000400)
T560C 001:379.905 - 2.946ms returns 0x184
T560C 001:379.929 JLINK_HasError()
T560C 001:379.939 JLINK_WriteReg(R0, 0x08001000)
T560C 001:379.949 - 0.013ms returns 0
T560C 001:379.957 JLINK_WriteReg(R1, 0x00000400)
T560C 001:379.963 - 0.009ms returns 0
T560C 001:379.970 JLINK_WriteReg(R2, 0x20000184)
T560C 001:379.977 - 0.009ms returns 0
T560C 001:379.983 JLINK_WriteReg(R3, 0x00000000)
T560C 001:379.989 - 0.009ms returns 0
T560C 001:379.997 JLINK_WriteReg(R4, 0x00000000)
T560C 001:380.003 - 0.008ms returns 0
T560C 001:380.009 JLINK_WriteReg(R5, 0x00000000)
T560C 001:380.015 - 0.008ms returns 0
T560C 001:380.022 JLINK_WriteReg(R6, 0x00000000)
T560C 001:380.028 - 0.008ms returns 0
T560C 001:380.035 JLINK_WriteReg(R7, 0x00000000)
T560C 001:380.041 - 0.008ms returns 0
T560C 001:380.047 JLINK_WriteReg(R8, 0x00000000)
T560C 001:380.053 - 0.009ms returns 0
T560C 001:380.060 JLINK_WriteReg(R9, 0x20000180)
T560C 001:380.067 - 0.009ms returns 0
T560C 001:380.073 JLINK_WriteReg(R10, 0x00000000)
T560C 001:380.080 - 0.008ms returns 0
T560C 001:380.086 JLINK_WriteReg(R11, 0x00000000)
T560C 001:380.092 - 0.008ms returns 0
T560C 001:380.099 JLINK_WriteReg(R12, 0x00000000)
T560C 001:380.105 - 0.008ms returns 0
T560C 001:380.112 JLINK_WriteReg(R13 (SP), 0x20001000)
T560C 001:380.119 - 0.010ms returns 0
T560C 001:380.126 JLINK_WriteReg(R14, 0x20000001)
T560C 001:380.132 - 0.008ms returns 0
T560C 001:380.139 JLINK_WriteReg(R15 (PC), 0x2000010C)
T560C 001:380.145 - 0.008ms returns 0
T560C 001:380.151 JLINK_WriteReg(XPSR, 0x01000000)
T560C 001:380.158 - 0.009ms returns 0
T560C 001:380.165 JLINK_WriteReg(MSP, 0x20001000)
T560C 001:380.171 - 0.009ms returns 0
T560C 001:380.178 JLINK_WriteReg(PSP, 0x20001000)
T560C 001:380.184 - 0.009ms returns 0
T560C 001:380.190 JLINK_WriteReg(CFBP, 0x00000000)
T560C 001:380.196 - 0.008ms returns 0
T560C 001:380.203 JLINK_SetBPEx(Addr = 0x20000000, Type = 0xFFFFFFF2)
T560C 001:380.210 - 0.010ms returns 0x0000000C
T560C 001:380.218 JLINK_Go()
T560C 001:380.231   CPU_ReadMem(4 bytes @ 0xE0001000)
T560C 001:384.719 - 4.516ms
T560C 001:384.743 JLINK_IsHalted()
T560C 001:385.458 - 0.726ms returns FALSE
T560C 001:385.476 JLINK_HasError()
T560C 001:390.865 JLINK_IsHalted()
T560C 001:394.715   CPU_ReadMem(2 bytes @ 0x20000000)
T560C 001:395.437 - 4.582ms returns TRUE
T560C 001:395.462 JLINK_ReadReg(R15 (PC))
T560C 001:395.472 - 0.013ms returns 0x20000000
T560C 001:395.479 JLINK_ClrBPEx(BPHandle = 0x0000000C)
T560C 001:395.486 - 0.009ms returns 0x00
T560C 001:395.493 JLINK_ReadReg(R0)
T560C 001:395.499 - 0.009ms returns 0x00000000
T560C 001:396.070 JLINK_WriteMem(0x20000184, 0x27C Bytes, ...)
T560C 001:396.081   Data:  08 38 02 40 00 00 47 42 80 0E 47 42 00 70 00 40 ...
T560C 001:396.096   CPU_WriteMem(636 bytes @ 0x20000184)
T560C 001:400.526 - 4.469ms returns 0x27C
T560C 001:400.547 JLINK_WriteMem(0x20000400, 0x184 Bytes, ...)
T560C 001:400.553   Data:  6F F0 10 00 21 68 08 61 08 20 20 77 20 68 C0 69 ...
T560C 001:400.570   CPU_WriteMem(388 bytes @ 0x20000400)
T560C 001:403.561 - 3.024ms returns 0x184
T560C 001:403.579 JLINK_HasError()
T560C 001:403.588 JLINK_WriteReg(R0, 0x08001400)
T560C 001:403.598 - 0.012ms returns 0
T560C 001:403.605 JLINK_WriteReg(R1, 0x00000400)
T560C 001:403.611 - 0.009ms returns 0
T560C 001:403.618 JLINK_WriteReg(R2, 0x20000184)
T560C 001:403.632 - 0.018ms returns 0
T560C 001:403.641 JLINK_WriteReg(R3, 0x00000000)
T560C 001:403.647 - 0.008ms returns 0
T560C 001:403.653 JLINK_WriteReg(R4, 0x00000000)
T560C 001:403.660 - 0.008ms returns 0
T560C 001:403.666 JLINK_WriteReg(R5, 0x00000000)
T560C 001:403.672 - 0.008ms returns 0
T560C 001:403.679 JLINK_WriteReg(R6, 0x00000000)
T560C 001:403.686 - 0.009ms returns 0
T560C 001:403.692 JLINK_WriteReg(R7, 0x00000000)
T560C 001:403.698 - 0.008ms returns 0
T560C 001:403.705 JLINK_WriteReg(R8, 0x00000000)
T560C 001:403.711 - 0.009ms returns 0
T560C 001:403.718 JLINK_WriteReg(R9, 0x20000180)
T560C 001:403.724 - 0.008ms returns 0
T560C 001:403.730 JLINK_WriteReg(R10, 0x00000000)
T560C 001:403.737 - 0.008ms returns 0
T560C 001:403.743 JLINK_WriteReg(R11, 0x00000000)
T560C 001:403.749 - 0.008ms returns 0
T560C 001:403.756 JLINK_WriteReg(R12, 0x00000000)
T560C 001:403.762 - 0.008ms returns 0
T560C 001:403.769 JLINK_WriteReg(R13 (SP), 0x20001000)
T560C 001:403.775 - 0.009ms returns 0
T560C 001:403.782 JLINK_WriteReg(R14, 0x20000001)
T560C 001:403.788 - 0.008ms returns 0
T560C 001:403.795 JLINK_WriteReg(R15 (PC), 0x2000010C)
T560C 001:403.802 - 0.009ms returns 0
T560C 001:403.808 JLINK_WriteReg(XPSR, 0x01000000)
T560C 001:403.815 - 0.008ms returns 0
T560C 001:403.821 JLINK_WriteReg(MSP, 0x20001000)
T560C 001:403.827 - 0.008ms returns 0
T560C 001:403.834 JLINK_WriteReg(PSP, 0x20001000)
T560C 001:403.840 - 0.009ms returns 0
T560C 001:403.847 JLINK_WriteReg(CFBP, 0x00000000)
T560C 001:403.853 - 0.008ms returns 0
T560C 001:403.860 JLINK_SetBPEx(Addr = 0x20000000, Type = 0xFFFFFFF2)
T560C 001:403.867 - 0.010ms returns 0x0000000D
T560C 001:403.874 JLINK_Go()
T560C 001:403.888   CPU_ReadMem(4 bytes @ 0xE0001000)
T560C 001:408.115 - 4.256ms
T560C 001:408.138 JLINK_IsHalted()
T560C 001:408.798 - 0.670ms returns FALSE
